T4A10 000:014.745   SEGGER J-Link V7.22b Log File
T4A10 000:014.870   DLL Compiled: Jun 17 2021 17:22:49
T4A10 000:014.874   Logging started @ 2023-07-22 10:37
T4A10 000:014.878 - 14.879ms
T4A10 000:014.885 JLINK_SetWarnOutHandler(...)
T4A10 000:014.890 - 0.006ms
T4A10 000:014.894 JLINK_OpenEx(...)
T4A10 000:016.465   Firmware: J-Link V9 compiled May  7 2021 16:26:12
T4A10 000:016.879   Firmware: J-Link V9 compiled May  7 2021 16:26:12
T4A10 000:017.013   Decompressing FW timestamp took 111 us
T4A10 000:025.950   Hardware: V9.40
T4A10 000:025.976   S/N: 69407185
T4A10 000:025.984   OEM: SEGGER
T4A10 000:025.989   Feature(s): RDI, GDB, FlashDL, FlashBP, JFlash
T4A10 000:027.290   TELNET listener socket opened on port 19021
T4A10 000:027.411   WEBSRV Starting webserver
T4A10 000:027.537   WEBSRV Webserver running on local port 19080
T4A10 000:027.544 - 12.652ms returns "O.K."
T4A10 000:027.559 JLINK_GetEmuCaps()
T4A10 000:027.564 - 0.008ms returns 0xB9FF7BBF
T4A10 000:027.573 JLINK_TIF_GetAvailable(...)
T4A10 000:027.754 - 0.188ms
T4A10 000:027.768 JLINK_SetErrorOutHandler(...)
T4A10 000:027.772 - 0.005ms
T4A10 000:027.787 JLINK_ExecCommand("ProjectFile = "D:\研究生资料\师姐的系统程序\torque（2021.02.04）v102 - 测电流(1)\torque（2021.02.04）v102 - 测电流\MDK-ARM\JLinkSettings.ini"", ...). 
T4A10 000:038.123   Device "STM32F405RG" selected.
T4A10 000:038.907 - 11.135ms returns 0x00
T4A10 000:038.962 JLINK_ExecCommand("Device = STM32F405RGTx", ...). 
T4A10 000:039.665   Device "STM32F405RG" selected.
T4A10 000:040.109 - 1.148ms returns 0x00
T4A10 000:040.127 JLINK_GetHardwareVersion()
T4A10 000:040.131 - 0.005ms returns 94000
T4A10 000:040.136 JLINK_GetDLLVersion()
T4A10 000:040.139 - 0.005ms returns 72202
T4A10 000:040.144 JLINK_GetOEMString(...)
T4A10 000:040.150 JLINK_GetFirmwareString(...)
T4A10 000:040.162 - 0.014ms
T4A10 000:040.186 JLINK_GetDLLVersion()
T4A10 000:040.191 - 0.007ms returns 72202
T4A10 000:040.197 JLINK_GetCompileDateTime()
T4A10 000:040.201 - 0.007ms
T4A10 000:040.213 JLINK_GetFirmwareString(...)
T4A10 000:040.218 - 0.006ms
T4A10 000:040.225 JLINK_GetHardwareVersion()
T4A10 000:040.228 - 0.004ms returns 94000
T4A10 000:040.235 JLINK_GetSN()
T4A10 000:040.239 - 0.005ms returns 69407185
T4A10 000:040.245 JLINK_GetOEMString(...)
T4A10 000:040.257 JLINK_TIF_Select(JLINKARM_TIF_SWD)
T4A10 000:041.050 - 0.802ms returns 0x00
T4A10 000:041.064 JLINK_HasError()
T4A10 000:041.076 JLINK_SetSpeed(5000)
T4A10 000:041.161 - 0.094ms
T4A10 000:041.176 JLINK_GetId()
T4A10 000:041.393   InitTarget() start
T4A10 000:041.401    J-Link Script File: Executing InitTarget()
T4A10 000:048.089   InitTarget() end
T4A10 000:048.720   Found SW-DP with ID 0x2BA01477
T4A10 000:050.924   DPIDR: 0x2BA01477
T4A10 000:050.959   Scanning AP map to find all available APs
T4A10 000:051.491   AP[1]: Stopped AP scan as end of AP map has been reached
T4A10 000:051.505   AP[0]: AHB-AP (IDR: 0x24770011)
T4A10 000:051.513   Iterating through AP map to find AHB-AP to use
T4A10 000:052.400   AP[0]: Core found
T4A10 000:052.417   AP[0]: AHB-AP ROM base: 0xE00FF000
T4A10 000:052.946   CPUID register: 0x410FC241. Implementer code: 0x41 (ARM)
T4A10 000:052.957   Found Cortex-M4 r0p1, Little endian.
T4A10 000:154.128   -- Max. mem block: 0x00010E60
T4A10 000:154.315   CPU_ReadMem(4 bytes @ 0xE000EDF0)
T4A10 000:154.691   CPU_ReadMem(4 bytes @ 0xE0002000)
T4A10 000:155.061   FPUnit: 6 code (BP) slots and 2 literal slots
T4A10 000:155.086   CPU_ReadMem(4 bytes @ 0xE000EDFC)
T4A10 000:155.382   CPU_WriteMem(4 bytes @ 0xE000EDFC)
T4A10 000:155.758   CPU_ReadMem(4 bytes @ 0xE0001000)
T4A10 000:156.080   CPU_WriteMem(4 bytes @ 0xE0001000)
T4A10 000:156.391   CPU_ReadMem(4 bytes @ 0xE000ED88)
T4A10 000:156.779   CPU_WriteMem(4 bytes @ 0xE000ED88)
T4A10 000:157.115   CPU_ReadMem(4 bytes @ 0xE000ED88)
T4A10 000:157.395   CPU_WriteMem(4 bytes @ 0xE000ED88)
T4A10 000:157.754   CoreSight components:
T4A10 000:157.765   ROMTbl[0] @ E00FF000
T4A10 000:157.771   CPU_ReadMem(64 bytes @ 0xE00FF000)
T4A10 000:158.496   CPU_ReadMem(32 bytes @ 0xE000EFE0)
T4A10 000:158.955   ROMTbl[0][0]: E000E000, CID: B105E00D, PID: 000BB00C SCS-M7
T4A10 000:158.967   CPU_ReadMem(32 bytes @ 0xE0001FE0)
T4A10 000:159.442   ROMTbl[0][1]: E0001000, CID: B105E00D, PID: 003BB002 DWT
T4A10 000:159.459   CPU_ReadMem(32 bytes @ 0xE0002FE0)
T4A10 000:160.036   ROMTbl[0][2]: E0002000, CID: B105E00D, PID: 002BB003 FPB
T4A10 000:160.048   CPU_ReadMem(32 bytes @ 0xE0000FE0)
T4A10 000:160.576   ROMTbl[0][3]: E0000000, CID: B105E00D, PID: 003BB001 ITM
T4A10 000:160.594   CPU_ReadMem(32 bytes @ 0xE0040FE0)
T4A10 000:161.188   ROMTbl[0][4]: E0040000, CID: B105900D, PID: 000BB9A1 TPIU
T4A10 000:161.202   CPU_ReadMem(32 bytes @ 0xE0041FE0)
T4A10 000:161.762   ROMTbl[0][5]: E0041000, CID: B105900D, PID: 000BB925 ETM
T4A10 000:162.061 - 120.892ms returns 0x2BA01477
T4A10 000:162.080 JLINK_GetDLLVersion()
T4A10 000:162.084 - 0.005ms returns 72202
T4A10 000:162.149 JLINK_CORE_GetFound()
T4A10 000:162.154 - 0.006ms returns 0xE0000FF
T4A10 000:162.159 JLINK_GetDebugInfo(0x100 = JLINKARM_ROM_TABLE_ADDR_INDEX)
T4A10 000:162.163   Value=0xE00FF000
T4A10 000:162.168 - 0.010ms returns 0
T4A10 000:162.184 JLINK_GetDebugInfo(0x100 = JLINKARM_ROM_TABLE_ADDR_INDEX)
T4A10 000:162.188   Value=0xE00FF000
T4A10 000:162.192 - 0.010ms returns 0
T4A10 000:162.196 JLINK_GetDebugInfo(0x101 = JLINKARM_DEBUG_INFO_ETM_ADDR_INDEX)
T4A10 000:162.200   Value=0xE0041000
T4A10 000:162.204 - 0.009ms returns 0
T4A10 000:162.212 JLINK_ReadMemEx(0xE0041FD0, 0x20 Bytes, Flags = 0x02000004)
T4A10 000:162.257   CPU_ReadMem(32 bytes @ 0xE0041FD0)
T4A10 000:162.712   Data:  04 00 00 00 00 00 00 00 00 00 00 00 00 00 00 00 ...
T4A10 000:162.721 - 0.510ms returns 32 (0x20)
T4A10 000:162.727 JLINK_GetDebugInfo(0x102 = JLINKARM_DEBUG_INFO_MTB_ADDR_INDEX)
T4A10 000:162.730   Value=0x00000000
T4A10 000:162.735 - 0.009ms returns 0
T4A10 000:162.739 JLINK_GetDebugInfo(0x103 = JLINKARM_DEBUG_INFO_TPIU_ADDR_INDEX)
T4A10 000:162.742   Value=0xE0040000
T4A10 000:162.747 - 0.009ms returns 0
T4A10 000:162.750 JLINK_GetDebugInfo(0x104 = JLINKARM_DEBUG_INFO_ITM_ADDR_INDEX)
T4A10 000:162.754   Value=0xE0000000
T4A10 000:162.759 - 0.009ms returns 0
T4A10 000:162.762 JLINK_GetDebugInfo(0x105 = JLINKARM_DEBUG_INFO_DWT_ADDR_INDEX)
T4A10 000:162.766   Value=0xE0001000
T4A10 000:162.770 - 0.009ms returns 0
T4A10 000:162.774 JLINK_GetDebugInfo(0x106 = JLINKARM_DEBUG_INFO_FPB_ADDR_INDEX)
T4A10 000:162.777   Value=0xE0002000
T4A10 000:162.782 - 0.009ms returns 0
T4A10 000:162.786 JLINK_GetDebugInfo(0x107 = JLINKARM_DEBUG_INFO_NVIC_ADDR_INDEX)
T4A10 000:162.789   Value=0xE000E000
T4A10 000:162.794 - 0.009ms returns 0
T4A10 000:162.797 JLINK_GetDebugInfo(0x10C = JLINKARM_DEBUG_INFO_DBG_ADDR_INDEX)
T4A10 000:162.801   Value=0xE000EDF0
T4A10 000:162.805 - 0.009ms returns 0
T4A10 000:162.809 JLINK_GetDebugInfo(0x01 = Unknown)
T4A10 000:162.813   Value=0x00000001
T4A10 000:162.817 - 0.009ms returns 0
T4A10 000:162.821 JLINK_ReadMemU32(0xE000ED00, 0x1 Items)
T4A10 000:162.829   CPU_ReadMem(4 bytes @ 0xE000ED00)
T4A10 000:163.111   Data:  41 C2 0F 41
T4A10 000:163.117   Debug reg: CPUID
T4A10 000:163.122 - 0.302ms returns 1 (0x1)
T4A10 000:163.127 JLINK_GetDebugInfo(0x10F = JLINKARM_DEBUG_INFO_HAS_CORTEX_M_SECURITY_EXT_INDEX)
T4A10 000:163.131   Value=0x00000000
T4A10 000:163.135 - 0.009ms returns 0
T4A10 000:163.140 JLINK_HasError()
T4A10 000:163.145 JLINK_SetResetType(JLINKARM_CM3_RESET_TYPE_NORMAL)
T4A10 000:163.148 - 0.005ms returns JLINKARM_CM3_RESET_TYPE_NORMAL
T4A10 000:163.153 JLINK_Reset()
T4A10 000:163.163   CPU is running
T4A10 000:163.168   CPU_WriteMem(4 bytes @ 0xE000EDF0)
T4A10 000:163.515   CPU is running
T4A10 000:163.529   CPU_WriteMem(4 bytes @ 0xE000EDFC)
T4A10 000:163.960   Reset: Halt core after reset via DEMCR.VC_CORERESET.
T4A10 000:164.359   Reset: Reset device via AIRCR.SYSRESETREQ.
T4A10 000:164.372   CPU is running
T4A10 000:164.379   CPU_WriteMem(4 bytes @ 0xE000ED0C)
T4A10 000:217.047   CPU_ReadMem(4 bytes @ 0xE000EDF0)
T4A10 000:217.406   CPU_ReadMem(4 bytes @ 0xE000EDF0)
T4A10 000:217.693   CPU is running
T4A10 000:217.712   CPU_WriteMem(4 bytes @ 0xE000EDF0)
T4A10 000:218.026   CPU is running
T4A10 000:218.045   CPU_WriteMem(4 bytes @ 0xE000EDFC)
T4A10 000:224.330   CPU_ReadMem(4 bytes @ 0xE000EDF0)
T4A10 000:227.388   CPU_WriteMem(4 bytes @ 0xE0002000)
T4A10 000:227.737   CPU_ReadMem(4 bytes @ 0xE000EDFC)
T4A10 000:228.036   CPU_ReadMem(4 bytes @ 0xE0001000)
T4A10 000:228.336 - 65.189ms
T4A10 000:228.353 JLINK_HasError()
T4A10 000:228.404 JLINK_ReadReg(R15 (PC))
T4A10 000:228.418 - 0.015ms returns 0x080001A0
T4A10 000:228.422 JLINK_ReadReg(XPSR)
T4A10 000:228.426 - 0.005ms returns 0x01000000
T4A10 000:228.431 JLINK_Halt()
T4A10 000:228.434 - 0.005ms returns 0x00
T4A10 000:228.439 JLINK_ReadMemU32(0xE000EDF0, 0x1 Items)
T4A10 000:228.449   CPU_ReadMem(4 bytes @ 0xE000EDF0)
T4A10 000:228.760   Data:  03 00 03 00
T4A10 000:228.768   Debug reg: DHCSR
T4A10 000:228.773 - 0.335ms returns 1 (0x1)
T4A10 000:228.778 JLINK_WriteU32_64(0xE000EDF0, 0xA05F0003)
T4A10 000:228.783   Debug reg: DHCSR
T4A10 000:229.071   CPU_WriteMem(4 bytes @ 0xE000EDF0)
T4A10 000:229.387 - 0.613ms returns 0 (0x00000000)
T4A10 000:229.396 JLINK_WriteU32_64(0xE000EDFC, 0x01000000)
T4A10 000:229.400   Debug reg: DEMCR
T4A10 000:229.408   CPU_WriteMem(4 bytes @ 0xE000EDFC)
T4A10 000:229.733 - 0.360ms returns 0 (0x00000000)
T4A10 000:229.807 JLINK_GetHWStatus(...)
T4A10 000:229.964 - 0.163ms returns 0
T4A10 000:229.995 JLINK_GetNumBPUnits(Type = 0xFFFFFF00)
T4A10 000:230.000 - 0.006ms returns 0x06
T4A10 000:230.005 JLINK_GetNumBPUnits(Type = 0xF0)
T4A10 000:230.008 - 0.005ms returns 0x2000
T4A10 000:230.012 JLINK_GetNumWPUnits()
T4A10 000:230.016 - 0.005ms returns 4
T4A10 000:230.027 JLINK_GetSpeed()
T4A10 000:230.030 - 0.005ms returns 4000
T4A10 000:230.038 JLINK_ReadMemU32(0xE000E004, 0x1 Items)
T4A10 000:230.048   CPU_ReadMem(4 bytes @ 0xE000E004)
T4A10 000:230.346   Data:  02 00 00 00
T4A10 000:230.355 - 0.318ms returns 1 (0x1)
T4A10 000:230.361 JLINK_ReadMemU32(0xE000E004, 0x1 Items)
T4A10 000:230.368   CPU_ReadMem(4 bytes @ 0xE000E004)
T4A10 000:230.696   Data:  02 00 00 00
T4A10 000:230.708 - 0.349ms returns 1 (0x1)
T4A10 000:230.716 JLINK_WriteMemEx(0xE0001000, 0x0000001C Bytes, Flags = 0x02000004)
T4A10 000:230.721   Data:  01 00 00 00 00 00 00 00 00 00 00 00 00 00 00 00 ...
T4A10 000:230.735   CPU_WriteMem(28 bytes @ 0xE0001000)
T4A10 000:231.207 - 0.502ms returns 0x1C
T4A10 000:231.226 JLINK_HasError()
T4A10 000:231.233 JLINK_ReadReg(R15 (PC))
T4A10 000:231.240 - 0.009ms returns 0x080001A0
T4A10 000:231.245 JLINK_ReadReg(XPSR)
T4A10 000:231.249 - 0.005ms returns 0x01000000
T4A10 000:235.706 JLINK_ReadMemEx(0xE0001004, 0x4 Bytes, Flags = 0x02000000)
T4A10 000:235.796   Data:  00 00 00 00
T4A10 000:235.809   Debug reg: DWT_CYCCNT
T4A10 000:235.821 - 0.119ms returns 4 (0x4)
T4A10 000:330.312 JLINK_HasError()
T4A10 000:330.345 JLINK_SetResetType(JLINKARM_CM3_RESET_TYPE_NORMAL)
T4A10 000:330.350 - 0.006ms returns JLINKARM_CM3_RESET_TYPE_NORMAL
T4A10 000:330.355 JLINK_Reset()
T4A10 000:330.374   CPU_WriteMem(4 bytes @ 0xE000EDF0)
T4A10 000:330.778   CPU_WriteMem(4 bytes @ 0xE000EDFC)
T4A10 000:331.112   Reset: Halt core after reset via DEMCR.VC_CORERESET.
T4A10 000:331.509   Reset: Reset device via AIRCR.SYSRESETREQ.
T4A10 000:331.516   CPU_WriteMem(4 bytes @ 0xE000ED0C)
T4A10 000:384.173   CPU_ReadMem(4 bytes @ 0xE000EDF0)
T4A10 000:386.243   CPU_ReadMem(4 bytes @ 0xE000EDF0)
T4A10 000:386.704   CPU_WriteMem(4 bytes @ 0xE000EDF0)
T4A10 000:387.016   CPU_WriteMem(4 bytes @ 0xE000EDFC)
T4A10 000:392.987   CPU_ReadMem(4 bytes @ 0xE000EDF0)
T4A10 000:396.678   CPU_WriteMem(4 bytes @ 0xE0002000)
T4A10 000:397.077   CPU_ReadMem(4 bytes @ 0xE000EDFC)
T4A10 000:397.408   CPU_ReadMem(4 bytes @ 0xE0001000)
T4A10 000:397.828 - 67.482ms
T4A10 000:397.942 JLINK_HasError()
T4A10 000:397.949 JLINK_ReadReg(R15 (PC))
T4A10 000:397.962 - 0.015ms returns 0x080001A0
T4A10 000:397.968 JLINK_ReadReg(XPSR)
T4A10 000:397.983 - 0.024ms returns 0x01000000
T4A10 000:398.715 JLINK_ReadMemEx(0x08000188, 0x3C Bytes, Flags = 0x02000000)
T4A10 000:398.744   CPU_ReadMem(128 bytes @ 0x08000180)
T4A10 000:399.875    -- Updating C cache (128 bytes @ 0x08000180)
T4A10 000:399.910    -- Read from C cache (60 bytes @ 0x08000188)
T4A10 000:399.921   Data:  DF F8 10 D0 00 F0 8E F8 00 48 00 47 F1 3B 00 08 ...
T4A10 000:399.927 - 1.215ms returns 60 (0x3C)
T4A10 000:399.940 JLINK_ReadMemEx(0x08000188, 0x2 Bytes, Flags = 0x02000000)
T4A10 000:399.948    -- Read from C cache (2 bytes @ 0x08000188)
T4A10 000:399.955   Data:  DF F8
T4A10 000:399.963 - 0.024ms returns 2 (0x2)
T4A10 000:400.041 JLINK_ReadMemEx(0x0800018A, 0x2 Bytes, Flags = 0x02000000)
T4A10 000:400.047    -- Read from C cache (2 bytes @ 0x0800018A)
T4A10 000:400.054   Data:  10 D0
T4A10 000:400.061 - 0.022ms returns 2 (0x2)
T4A10 000:400.071 JLINK_ReadMemEx(0x0800018C, 0x3C Bytes, Flags = 0x02000000)
T4A10 000:400.077    -- Read from C cache (60 bytes @ 0x0800018C)
T4A10 000:400.085   Data:  00 F0 8E F8 00 48 00 47 F1 3B 00 08 AF F3 00 80 ...
T4A10 000:400.091 - 0.022ms returns 60 (0x3C)
T4A10 000:400.097 JLINK_ReadMemEx(0x0800018C, 0x2 Bytes, Flags = 0x02000000)
T4A10 000:400.102    -- Read from C cache (2 bytes @ 0x0800018C)
T4A10 000:400.109   Data:  00 F0
T4A10 000:400.116 - 0.021ms returns 2 (0x2)
T4A10 000:400.121 JLINK_ReadMemEx(0x0800018E, 0x2 Bytes, Flags = 0x02000000)
T4A10 000:400.127    -- Read from C cache (2 bytes @ 0x0800018E)
T4A10 000:400.133   Data:  8E F8
T4A10 000:400.140 - 0.020ms returns 2 (0x2)
T4A10 000:400.147 JLINK_ReadMemEx(0x08000190, 0x3C Bytes, Flags = 0x02000000)
T4A10 000:400.152    -- Read from C cache (60 bytes @ 0x08000190)
T4A10 000:400.159   Data:  00 48 00 47 F1 3B 00 08 AF F3 00 80 58 0B 00 20 ...
T4A10 000:400.166 - 0.021ms returns 60 (0x3C)
T4A10 000:400.172 JLINK_ReadMemEx(0x08000190, 0x2 Bytes, Flags = 0x02000000)
T4A10 000:400.178    -- Read from C cache (2 bytes @ 0x08000190)
T4A10 000:400.185   Data:  00 48
T4A10 000:400.191 - 0.022ms returns 2 (0x2)
T4A10 000:400.197 JLINK_ReadMemEx(0x08000192, 0x2 Bytes, Flags = 0x02000000)
T4A10 000:400.203    -- Read from C cache (2 bytes @ 0x08000192)
T4A10 000:400.209   Data:  00 47
T4A10 000:400.216 - 0.020ms returns 2 (0x2)
T4A10 000:400.223 JLINK_ReadMemEx(0x08000192, 0x2 Bytes, Flags = 0x02000000)
T4A10 000:400.228    -- Read from C cache (2 bytes @ 0x08000192)
T4A10 000:400.235   Data:  00 47
T4A10 000:400.241 - 0.021ms returns 2 (0x2)
T4A10 000:400.247 JLINK_ReadMemEx(0x08000194, 0x3C Bytes, Flags = 0x02000000)
T4A10 000:400.252    -- Read from C cache (60 bytes @ 0x08000194)
T4A10 000:400.260   Data:  F1 3B 00 08 AF F3 00 80 58 0B 00 20 06 48 80 47 ...
T4A10 000:400.266 - 0.021ms returns 60 (0x3C)
T4A10 000:400.272 JLINK_ReadMemEx(0x08000194, 0x2 Bytes, Flags = 0x02000000)
T4A10 000:400.277    -- Read from C cache (2 bytes @ 0x08000194)
T4A10 000:400.283   Data:  F1 3B
T4A10 000:400.290 - 0.020ms returns 2 (0x2)
T4A10 000:400.297 JLINK_ReadMemEx(0x08000198, 0x3C Bytes, Flags = 0x02000000)
T4A10 000:400.303    -- Read from C cache (60 bytes @ 0x08000198)
T4A10 000:400.311   Data:  AF F3 00 80 58 0B 00 20 06 48 80 47 06 48 00 47 ...
T4A10 000:400.318 - 0.022ms returns 60 (0x3C)
T4A10 000:400.323 JLINK_ReadMemEx(0x08000198, 0x2 Bytes, Flags = 0x02000000)
T4A10 000:400.328    -- Read from C cache (2 bytes @ 0x08000198)
T4A10 000:400.335   Data:  AF F3
T4A10 000:400.341 - 0.020ms returns 2 (0x2)
T4A10 000:400.346 JLINK_ReadMemEx(0x0800019A, 0x2 Bytes, Flags = 0x02000000)
T4A10 000:400.352    -- Read from C cache (2 bytes @ 0x0800019A)
T4A10 000:400.358   Data:  00 80
T4A10 000:400.364 - 0.020ms returns 2 (0x2)
T4A10 000:400.382 JLINK_ReadMemEx(0x0800019E, 0x2 Bytes, Flags = 0x02000000)
T4A10 000:400.387    -- Read from C cache (2 bytes @ 0x0800019E)
T4A10 000:400.393   Data:  00 20
T4A10 000:400.399 - 0.020ms returns 2 (0x2)
T4A10 000:400.406 JLINK_ReadMemEx(0x080001A0, 0x3C Bytes, Flags = 0x02000000)
T4A10 000:400.413    -- Read from C cache (60 bytes @ 0x080001A0)
T4A10 000:400.591   Data:  06 48 80 47 06 48 00 47 FE E7 FE E7 FE E7 FE E7 ...
T4A10 000:400.597 - 0.193ms returns 60 (0x3C)
T4A10 000:400.604 JLINK_ReadMemEx(0x080001A0, 0x2 Bytes, Flags = 0x02000000)
T4A10 000:400.611    -- Read from C cache (2 bytes @ 0x080001A0)
T4A10 000:400.618   Data:  06 48
T4A10 000:400.625 - 0.023ms returns 2 (0x2)
T4A10 000:400.670 JLINK_ReadMemEx(0x080001A0, 0x3C Bytes, Flags = 0x02000000)
T4A10 000:400.677    -- Read from C cache (60 bytes @ 0x080001A0)
T4A10 000:400.690   Data:  06 48 80 47 06 48 00 47 FE E7 FE E7 FE E7 FE E7 ...
T4A10 000:400.698 - 0.030ms returns 60 (0x3C)
T4A10 000:400.704 JLINK_ReadMemEx(0x080001A0, 0x2 Bytes, Flags = 0x02000000)
T4A10 000:400.711    -- Read from C cache (2 bytes @ 0x080001A0)
T4A10 000:400.718   Data:  06 48
T4A10 000:400.724 - 0.023ms returns 2 (0x2)
T4A10 000:400.730 JLINK_ReadMemEx(0x080001A2, 0x2 Bytes, Flags = 0x02000000)
T4A10 000:400.736    -- Read from C cache (2 bytes @ 0x080001A2)
T4A10 000:400.743   Data:  80 47
T4A10 000:400.750 - 0.022ms returns 2 (0x2)
T4A10 000:400.764 JLINK_ReadMemEx(0x080001A2, 0x2 Bytes, Flags = 0x02000000)
T4A10 000:400.769    -- Read from C cache (2 bytes @ 0x080001A2)
T4A10 000:400.776   Data:  80 47
T4A10 000:400.783 - 0.022ms returns 2 (0x2)
T4A10 000:400.789 JLINK_ReadMemEx(0x080001A4, 0x3C Bytes, Flags = 0x02000000)
T4A10 000:400.796    -- Read from C cache (60 bytes @ 0x080001A4)
T4A10 000:400.803   Data:  06 48 00 47 FE E7 FE E7 FE E7 FE E7 FE E7 FE E7 ...
T4A10 000:400.811 - 0.024ms returns 60 (0x3C)
T4A10 000:400.817 JLINK_ReadMemEx(0x080001A4, 0x2 Bytes, Flags = 0x02000000)
T4A10 000:400.822    -- Read from C cache (2 bytes @ 0x080001A4)
T4A10 000:400.828   Data:  06 48
T4A10 000:400.834 - 0.019ms returns 2 (0x2)
T4A10 000:400.842 JLINK_ReadMemEx(0x080001A4, 0x3C Bytes, Flags = 0x02000000)
T4A10 000:400.847    -- Read from C cache (60 bytes @ 0x080001A4)
T4A10 000:400.854   Data:  06 48 00 47 FE E7 FE E7 FE E7 FE E7 FE E7 FE E7 ...
T4A10 000:400.860 - 0.021ms returns 60 (0x3C)
T4A10 000:400.866 JLINK_ReadMemEx(0x080001A4, 0x2 Bytes, Flags = 0x02000000)
T4A10 000:400.872    -- Read from C cache (2 bytes @ 0x080001A4)
T4A10 000:400.879   Data:  06 48
T4A10 000:400.885 - 0.021ms returns 2 (0x2)
T4A10 000:400.891 JLINK_ReadMemEx(0x080001A6, 0x2 Bytes, Flags = 0x02000000)
T4A10 000:400.897    -- Read from C cache (2 bytes @ 0x080001A6)
T4A10 000:400.904   Data:  00 47
T4A10 000:400.910 - 0.021ms returns 2 (0x2)
T4A10 000:568.577 JLINK_ReadMemEx(0x40012000, 0x4C Bytes, Flags = 0x02000004)
T4A10 000:568.716   CPU_ReadMem(76 bytes @ 0x40012000)
T4A10 000:569.527   Data:  00 00 00 00 00 00 00 00 00 00 00 00 00 00 00 00 ...
T4A10 000:569.550 - 0.976ms returns 76 (0x4C)
T4A10 000:569.566 JLINK_ReadMemEx(0x4001204C, 0x4 Bytes, Flags = 0x02000004)
T4A10 000:569.584   CPU_ReadMem(4 bytes @ 0x4001204C)
T4A10 000:569.923   Data:  00 00 00 00
T4A10 000:569.931 - 0.366ms returns 4 (0x4)
T4A10 000:625.550 JLINK_ReadMemEx(0x40010000, 0x10 Bytes, Flags = 0x02000004)
T4A10 000:625.596   CPU_ReadMem(16 bytes @ 0x40010000)
T4A10 000:626.007   Data:  00 00 00 00 00 00 00 00 00 00 00 00 00 00 00 00
T4A10 000:626.020 - 0.472ms returns 16 (0x10)
T4A10 000:626.061 JLINK_ReadMemEx(0x40010010, 0x4 Bytes, Flags = 0x02000004)
T4A10 000:626.071   CPU_ReadMem(4 bytes @ 0x40010010)
T4A10 000:626.368   Data:  00 00 00 00
T4A10 000:626.376 - 0.316ms returns 4 (0x4)
T4A10 000:626.382 JLINK_ReadMemEx(0x40010018, 0x14 Bytes, Flags = 0x02000004)
T4A10 000:626.389   CPU_ReadMem(20 bytes @ 0x40010018)
T4A10 000:626.796   Data:  00 00 00 00 00 00 00 00 00 00 00 00 00 00 00 00 ...
T4A10 000:626.806 - 0.426ms returns 20 (0x14)
T4A10 000:626.812 JLINK_ReadMemEx(0x4001002C, 0x4 Bytes, Flags = 0x02000004)
T4A10 000:626.817   CPU_ReadMem(4 bytes @ 0x4001002C)
T4A10 000:627.147   Data:  00 00 00 00
T4A10 000:627.153 - 0.343ms returns 4 (0x4)
T4A10 000:627.159 JLINK_ReadMemEx(0x40010030, 0x4 Bytes, Flags = 0x02000004)
T4A10 000:627.164   CPU_ReadMem(4 bytes @ 0x40010030)
T4A10 000:627.545   Data:  00 00 00 00
T4A10 000:627.552 - 0.394ms returns 4 (0x4)
T4A10 000:627.557 JLINK_ReadMemEx(0x40010034, 0xC Bytes, Flags = 0x02000004)
T4A10 000:627.563   CPU_ReadMem(12 bytes @ 0x40010034)
T4A10 000:627.958   Data:  00 00 00 00 00 00 00 00 00 00 00 00
T4A10 000:627.963 - 0.407ms returns 12 (0xC)
T4A10 000:627.968 JLINK_ReadMemEx(0x40010040, 0x4 Bytes, Flags = 0x02000004)
T4A10 000:627.973   CPU_ReadMem(4 bytes @ 0x40010040)
T4A10 000:628.259   Data:  00 00 00 00
T4A10 000:628.264 - 0.297ms returns 4 (0x4)
T4A10 000:628.269 JLINK_ReadMemEx(0x40010044, 0x4 Bytes, Flags = 0x02000004)
T4A10 000:628.274   CPU_ReadMem(4 bytes @ 0x40010044)
T4A10 000:628.557   Data:  00 00 00 00
T4A10 000:628.562 - 0.294ms returns 4 (0x4)
T4A10 000:628.567 JLINK_ReadMemEx(0x40010048, 0x4 Bytes, Flags = 0x02000004)
T4A10 000:628.572   CPU_ReadMem(4 bytes @ 0x40010048)
T4A10 000:628.876   Data:  00 00 00 00
T4A10 000:628.881 - 0.314ms returns 4 (0x4)
T4A10 000:628.887 JLINK_ReadMemEx(0x4001004C, 0x4 Bytes, Flags = 0x02000004)
T4A10 000:628.892   CPU_ReadMem(4 bytes @ 0x4001004C)
T4A10 000:629.218   Data:  00 00 00 00
T4A10 000:629.224 - 0.338ms returns 4 (0x4)
T4A10 002:136.035 JLINK_ReadMemEx(0x0800019E, 0x2 Bytes, Flags = 0x02000000)
T4A10 002:136.063    -- Read from C cache (2 bytes @ 0x0800019E)
T4A10 002:136.069   Data:  00 20
T4A10 002:136.075 - 0.041ms returns 2 (0x2)
T4A10 002:136.080 JLINK_ReadMemEx(0x080001A0, 0x3C Bytes, Flags = 0x02000000)
T4A10 002:136.084    -- Read from C cache (60 bytes @ 0x080001A0)
T4A10 002:136.090   Data:  06 48 80 47 06 48 00 47 FE E7 FE E7 FE E7 FE E7 ...
T4A10 002:136.094 - 0.016ms returns 60 (0x3C)
T4A10 002:136.098 JLINK_ReadMemEx(0x080001A0, 0x2 Bytes, Flags = 0x02000000)
T4A10 002:136.102    -- Read from C cache (2 bytes @ 0x080001A0)
T4A10 002:136.107   Data:  06 48
T4A10 002:136.112 - 0.014ms returns 2 (0x2)
T4A10 002:136.130 JLINK_ReadMemEx(0x080001A0, 0x3C Bytes, Flags = 0x02000000)
T4A10 002:136.134    -- Read from C cache (60 bytes @ 0x080001A0)
T4A10 002:136.139   Data:  06 48 80 47 06 48 00 47 FE E7 FE E7 FE E7 FE E7 ...
T4A10 002:136.144 - 0.015ms returns 60 (0x3C)
T4A10 002:136.148 JLINK_ReadMemEx(0x080001A0, 0x2 Bytes, Flags = 0x02000000)
T4A10 002:136.152    -- Read from C cache (2 bytes @ 0x080001A0)
T4A10 002:136.156   Data:  06 48
T4A10 002:136.161 - 0.014ms returns 2 (0x2)
T4A10 002:136.165 JLINK_ReadMemEx(0x080001A2, 0x2 Bytes, Flags = 0x02000000)
T4A10 002:136.169    -- Read from C cache (2 bytes @ 0x080001A2)
T4A10 002:136.174   Data:  80 47
T4A10 002:136.178 - 0.014ms returns 2 (0x2)
T4A10 002:136.187 JLINK_ReadMemEx(0x080001A2, 0x2 Bytes, Flags = 0x02000000)
T4A10 002:136.192    -- Read from C cache (2 bytes @ 0x080001A2)
T4A10 002:136.196   Data:  80 47
T4A10 002:136.201 - 0.016ms returns 2 (0x2)
T4A10 002:136.205 JLINK_ReadMemEx(0x080001A4, 0x3C Bytes, Flags = 0x02000000)
T4A10 002:136.209    -- Read from C cache (60 bytes @ 0x080001A4)
T4A10 002:136.214   Data:  06 48 00 47 FE E7 FE E7 FE E7 FE E7 FE E7 FE E7 ...
T4A10 002:136.219 - 0.015ms returns 60 (0x3C)
T4A10 002:136.223 JLINK_ReadMemEx(0x080001A4, 0x2 Bytes, Flags = 0x02000000)
T4A10 002:136.227    -- Read from C cache (2 bytes @ 0x080001A4)
T4A10 002:136.232   Data:  06 48
T4A10 002:136.236 - 0.014ms returns 2 (0x2)
T4A10 002:136.242 JLINK_ReadMemEx(0x080001A4, 0x3C Bytes, Flags = 0x02000000)
T4A10 002:136.246    -- Read from C cache (60 bytes @ 0x080001A4)
T4A10 002:136.251   Data:  06 48 00 47 FE E7 FE E7 FE E7 FE E7 FE E7 FE E7 ...
T4A10 002:136.256 - 0.015ms returns 60 (0x3C)
T4A10 002:136.260 JLINK_ReadMemEx(0x080001A4, 0x2 Bytes, Flags = 0x02000000)
T4A10 002:136.263    -- Read from C cache (2 bytes @ 0x080001A4)
T4A10 002:136.268   Data:  06 48
T4A10 002:136.273 - 0.014ms returns 2 (0x2)
T4A10 002:136.277 JLINK_ReadMemEx(0x080001A6, 0x2 Bytes, Flags = 0x02000000)
T4A10 002:136.281    -- Read from C cache (2 bytes @ 0x080001A6)
T4A10 002:136.286   Data:  00 47
T4A10 002:136.290 - 0.014ms returns 2 (0x2)
T4A10 002:416.447 JLINK_HasError()
T4A10 002:416.477 JLINK_ReadReg(R0)
T4A10 002:416.827 - 0.360ms returns 0x00000000
T4A10 002:416.845 JLINK_ReadReg(R1)
T4A10 002:416.849 - 0.006ms returns 0x00000000
T4A10 002:416.853 JLINK_ReadReg(R2)
T4A10 002:416.857 - 0.005ms returns 0x00000000
T4A10 002:416.861 JLINK_ReadReg(R3)
T4A10 002:416.865 - 0.005ms returns 0x00000000
T4A10 002:416.869 JLINK_ReadReg(R4)
T4A10 002:416.874 - 0.007ms returns 0x00000000
T4A10 002:416.879 JLINK_ReadReg(R5)
T4A10 002:416.884 - 0.007ms returns 0x00000000
T4A10 002:416.890 JLINK_ReadReg(R6)
T4A10 002:416.893 - 0.005ms returns 0x00000000
T4A10 002:416.898 JLINK_ReadReg(R7)
T4A10 002:416.901 - 0.005ms returns 0x00000000
T4A10 002:416.905 JLINK_ReadReg(R8)
T4A10 002:416.919 - 0.015ms returns 0x00000000
T4A10 002:416.923 JLINK_ReadReg(R9)
T4A10 002:416.926 - 0.005ms returns 0x00000000
T4A10 002:416.931 JLINK_ReadReg(R10)
T4A10 002:416.934 - 0.005ms returns 0x00000000
T4A10 002:416.938 JLINK_ReadReg(R11)
T4A10 002:416.942 - 0.005ms returns 0x00000000
T4A10 002:416.946 JLINK_ReadReg(R12)
T4A10 002:416.949 - 0.005ms returns 0x00000000
T4A10 002:416.953 JLINK_ReadReg(R13 (SP))
T4A10 002:416.957 - 0.005ms returns 0x20000B58
T4A10 002:416.961 JLINK_ReadReg(R14)
T4A10 002:416.965 - 0.005ms returns 0xFFFFFFFF
T4A10 002:416.969 JLINK_ReadReg(R15 (PC))
T4A10 002:416.972 - 0.005ms returns 0x080001A0
T4A10 002:416.976 JLINK_ReadReg(XPSR)
T4A10 002:416.980 - 0.005ms returns 0x01000000
T4A10 002:416.984 JLINK_ReadReg(MSP)
T4A10 002:416.988 - 0.005ms returns 0x20000B58
T4A10 002:416.992 JLINK_ReadReg(PSP)
T4A10 002:416.995 - 0.005ms returns 0x00000000
T4A10 002:416.999 JLINK_ReadReg(CFBP)
T4A10 002:417.003 - 0.005ms returns 0x00000000
T4A10 002:417.007 JLINK_ReadReg(FPSCR)
T4A10 002:421.185 - 4.205ms returns 0x00000000
T4A10 002:421.222 JLINK_ReadReg(FPS0)
T4A10 002:421.232 - 0.012ms returns 0x00000000
T4A10 002:421.237 JLINK_ReadReg(FPS1)
T4A10 002:421.240 - 0.005ms returns 0x00000000
T4A10 002:421.244 JLINK_ReadReg(FPS2)
T4A10 002:421.248 - 0.005ms returns 0x00000000
T4A10 002:421.252 JLINK_ReadReg(FPS3)
T4A10 002:421.255 - 0.005ms returns 0x00000000
T4A10 002:421.259 JLINK_ReadReg(FPS4)
T4A10 002:421.263 - 0.005ms returns 0x00000000
T4A10 002:421.267 JLINK_ReadReg(FPS5)
T4A10 002:421.270 - 0.005ms returns 0x00000000
T4A10 002:421.275 JLINK_ReadReg(FPS6)
T4A10 002:421.278 - 0.005ms returns 0x00000000
T4A10 002:421.282 JLINK_ReadReg(FPS7)
T4A10 002:421.285 - 0.005ms returns 0x00000000
T4A10 002:421.289 JLINK_ReadReg(FPS8)
T4A10 002:421.293 - 0.005ms returns 0x00000000
T4A10 002:421.297 JLINK_ReadReg(FPS9)
T4A10 002:421.300 - 0.005ms returns 0x00000000
T4A10 002:421.304 JLINK_ReadReg(FPS10)
T4A10 002:421.308 - 0.005ms returns 0x00000000
T4A10 002:421.312 JLINK_ReadReg(FPS11)
T4A10 002:421.315 - 0.005ms returns 0x00000000
T4A10 002:421.319 JLINK_ReadReg(FPS12)
T4A10 002:421.323 - 0.005ms returns 0x00000000
T4A10 002:421.327 JLINK_ReadReg(FPS13)
T4A10 002:421.330 - 0.005ms returns 0x00000000
T4A10 002:421.334 JLINK_ReadReg(FPS14)
T4A10 002:421.338 - 0.005ms returns 0x00000000
T4A10 002:421.342 JLINK_ReadReg(FPS15)
T4A10 002:421.345 - 0.005ms returns 0x00000000
T4A10 002:421.349 JLINK_ReadReg(FPS16)
T4A10 002:421.353 - 0.005ms returns 0x00000000
T4A10 002:421.357 JLINK_ReadReg(FPS17)
T4A10 002:421.360 - 0.005ms returns 0x00000000
T4A10 002:421.364 JLINK_ReadReg(FPS18)
T4A10 002:421.367 - 0.006ms returns 0x00000000
T4A10 002:421.373 JLINK_ReadReg(FPS19)
T4A10 002:421.376 - 0.005ms returns 0x00000000
T4A10 002:421.380 JLINK_ReadReg(FPS20)
T4A10 002:421.385 - 0.005ms returns 0x00000000
T4A10 002:421.389 JLINK_ReadReg(FPS21)
T4A10 002:421.392 - 0.005ms returns 0x00000000
T4A10 002:421.396 JLINK_ReadReg(FPS22)
T4A10 002:421.400 - 0.005ms returns 0x00000000
T4A10 002:421.404 JLINK_ReadReg(FPS23)
T4A10 002:421.407 - 0.005ms returns 0x00000000
T4A10 002:421.411 JLINK_ReadReg(FPS24)
T4A10 002:421.414 - 0.005ms returns 0x00000000
T4A10 002:421.418 JLINK_ReadReg(FPS25)
T4A10 002:421.422 - 0.012ms returns 0x00000000
T4A10 002:421.438 JLINK_ReadReg(FPS26)
T4A10 002:421.441 - 0.005ms returns 0x00000000
T4A10 002:421.445 JLINK_ReadReg(FPS27)
T4A10 002:421.449 - 0.005ms returns 0x00000000
T4A10 002:421.453 JLINK_ReadReg(FPS28)
T4A10 002:421.456 - 0.005ms returns 0x00000000
T4A10 002:421.460 JLINK_ReadReg(FPS29)
T4A10 002:421.464 - 0.005ms returns 0x00000000
T4A10 002:421.468 JLINK_ReadReg(FPS30)
T4A10 002:421.471 - 0.005ms returns 0x00000000
T4A10 002:421.475 JLINK_ReadReg(FPS31)
T4A10 002:421.479 - 0.005ms returns 0x00000000
T4A10 002:452.880 JLINK_ReadMemEx(0x2000000A, 0x2 Bytes, Flags = 0x02000000)
T4A10 002:452.923   CPU_ReadMem(64 bytes @ 0x20000000)
T4A10 002:453.723    -- Updating C cache (64 bytes @ 0x20000000)
T4A10 002:453.747    -- Read from C cache (2 bytes @ 0x2000000A)
T4A10 002:453.754   Data:  08 24
T4A10 002:453.760 - 0.882ms returns 2 (0x2)
T4A10 002:454.236 JLINK_ReadMemEx(0x2000000A, 0x2 Bytes, Flags = 0x02000000)
T4A10 002:454.254    -- Read from C cache (2 bytes @ 0x2000000A)
T4A10 002:454.262   Data:  08 24
T4A10 002:454.267 - 0.033ms returns 2 (0x2)
T4A10 002:454.308 JLINK_ReadMemEx(0x2000000A, 0x2 Bytes, Flags = 0x02000000)
T4A10 002:454.313    -- Read from C cache (2 bytes @ 0x2000000A)
T4A10 002:454.318   Data:  08 24
T4A10 002:454.323 - 0.016ms returns 2 (0x2)
T4A10 002:464.426 JLINK_ReadMemEx(0x2000000C, 0x4 Bytes, Flags = 0x02000000)
T4A10 002:464.481    -- Read from C cache (4 bytes @ 0x2000000C)
T4A10 002:464.487   Data:  40 00 00 D3
T4A10 002:464.494 - 0.070ms returns 4 (0x4)
T4A10 002:464.712 JLINK_ReadMemEx(0x2000000C, 0x4 Bytes, Flags = 0x02000000)
T4A10 002:464.729    -- Read from C cache (4 bytes @ 0x2000000C)
T4A10 002:464.736   Data:  40 00 00 D3
T4A10 002:464.743 - 0.032ms returns 4 (0x4)
T4A10 002:464.781 JLINK_ReadMemEx(0x2000000C, 0x4 Bytes, Flags = 0x02000000)
T4A10 002:464.786    -- Read from C cache (4 bytes @ 0x2000000C)
T4A10 002:464.793   Data:  40 00 00 D3
T4A10 002:464.799 - 0.019ms returns 4 (0x4)
T4A10 002:472.401 JLINK_ReadMemEx(0x20000004, 0x2 Bytes, Flags = 0x02000000)
T4A10 002:472.472    -- Read from C cache (2 bytes @ 0x20000004)
T4A10 002:472.482   Data:  0D 78
T4A10 002:472.491 - 0.095ms returns 2 (0x2)
T4A10 002:472.802 JLINK_ReadMemEx(0x20000004, 0x2 Bytes, Flags = 0x02000000)
T4A10 002:472.817    -- Read from C cache (2 bytes @ 0x20000004)
T4A10 002:472.825   Data:  0D 78
T4A10 002:472.833 - 0.033ms returns 2 (0x2)
T4A10 002:472.875 JLINK_ReadMemEx(0x20000004, 0x2 Bytes, Flags = 0x02000000)
T4A10 002:472.882    -- Read from C cache (2 bytes @ 0x20000004)
T4A10 002:472.889   Data:  0D 78
T4A10 002:472.896 - 0.023ms returns 2 (0x2)
T4A10 002:480.888 JLINK_ReadMemEx(0x20000006, 0x2 Bytes, Flags = 0x02000000)
T4A10 002:480.929    -- Read from C cache (2 bytes @ 0x20000006)
T4A10 002:480.936   Data:  2D 06
T4A10 002:480.944 - 0.058ms returns 2 (0x2)
T4A10 002:481.199 JLINK_ReadMemEx(0x20000006, 0x2 Bytes, Flags = 0x02000000)
T4A10 002:481.209    -- Read from C cache (2 bytes @ 0x20000006)
T4A10 002:481.216   Data:  2D 06
T4A10 002:481.224 - 0.027ms returns 2 (0x2)
T4A10 002:481.251 JLINK_ReadMemEx(0x20000006, 0x2 Bytes, Flags = 0x02000000)
T4A10 002:481.258    -- Read from C cache (2 bytes @ 0x20000006)
T4A10 002:481.264   Data:  2D 06
T4A10 002:481.271 - 0.022ms returns 2 (0x2)
T4A10 002:523.599 JLINK_ReadMemEx(0x200006C6, 0x2 Bytes, Flags = 0x02000000)
T4A10 002:523.661   CPU_ReadMem(64 bytes @ 0x200006C0)
T4A10 002:524.394    -- Updating C cache (64 bytes @ 0x200006C0)
T4A10 002:524.428    -- Read from C cache (2 bytes @ 0x200006C6)
T4A10 002:524.438   Data:  00 00
T4A10 002:524.446 - 0.850ms returns 2 (0x2)
T4A10 002:528.930 JLINK_ReadMemEx(0x200006C6, 0x2 Bytes, Flags = 0x02000000)
T4A10 002:529.005    -- Read from C cache (2 bytes @ 0x200006C6)
T4A10 002:529.013   Data:  00 00
T4A10 002:529.021 - 0.093ms returns 2 (0x2)
T4A10 002:529.074 JLINK_ReadMemEx(0x200006C6, 0x2 Bytes, Flags = 0x02000000)
T4A10 002:529.079    -- Read from C cache (2 bytes @ 0x200006C6)
T4A10 002:529.083   Data:  00 00
T4A10 002:529.269 - 0.198ms returns 2 (0x2)
T3314 002:573.623 JLINK_ReadMemEx(0x080001A0, 0x2 Bytes, Flags = 0x02000000)
T3314 002:573.670    -- Read from C cache (2 bytes @ 0x080001A0)
T3314 002:573.680   Data:  06 48
T3314 002:573.687 - 0.065ms returns 2 (0x2)
T3314 002:573.693 JLINK_HasError()
T3314 002:573.704 JLINK_SetBPEx(Addr = 0x08003BF0, Type = 0xFFFFFFF2)
T3314 002:573.719 - 0.017ms returns 0x00000001
T3314 002:573.725 JLINK_HasError()
T3314 002:573.729 JLINK_HasError()
T3314 002:573.734 JLINK_Go()
T3314 002:573.790   CPU_WriteMem(4 bytes @ 0xE0002000)
T3314 002:574.212   CPU_ReadMem(4 bytes @ 0xE0001000)
T3314 002:574.529   CPU_WriteMem(4 bytes @ 0xE0002008)
T3314 002:574.546   CPU_WriteMem(4 bytes @ 0xE000200C)
T3314 002:574.551   CPU_WriteMem(4 bytes @ 0xE0002010)
T3314 002:574.556   CPU_WriteMem(4 bytes @ 0xE0002014)
T3314 002:574.561   CPU_WriteMem(4 bytes @ 0xE0002018)
T3314 002:574.566   CPU_WriteMem(4 bytes @ 0xE000201C)
T3314 002:575.965   CPU_WriteMem(4 bytes @ 0xE0001004)
T3314 002:576.777 - 3.052ms
T3314 002:676.992 JLINK_HasError()
T3314 002:677.063 JLINK_IsHalted()
T3314 002:679.848 - 2.811ms returns TRUE
T3314 002:679.885 JLINK_HasError()
T3314 002:679.891 JLINK_Halt()
T3314 002:679.895 - 0.005ms returns 0x00
T3314 002:679.900 JLINK_IsHalted()
T3314 002:679.903 - 0.005ms returns TRUE
T3314 002:679.908 JLINK_IsHalted()
T3314 002:679.911 - 0.005ms returns TRUE
T3314 002:679.915 JLINK_IsHalted()
T3314 002:679.919 - 0.005ms returns TRUE
T3314 002:679.925 JLINK_HasError()
T3314 002:679.932 JLINK_ReadReg(R15 (PC))
T3314 002:679.940 - 0.009ms returns 0x08003BF0
T3314 002:679.944 JLINK_ReadReg(XPSR)
T3314 002:679.948 - 0.005ms returns 0x61000000
T3314 002:679.960 JLINK_HasError()
T3314 002:679.965 JLINK_ClrBPEx(BPHandle = 0x00000001)
T3314 002:679.969 - 0.005ms returns 0x00
T3314 002:679.973 JLINK_HasError()
T3314 002:679.978 JLINK_HasError()
T3314 002:679.984 JLINK_ReadMemU32(0xE000ED30, 0x1 Items)
T3314 002:679.999   CPU_ReadMem(4 bytes @ 0xE000ED30)
T3314 002:680.397   Data:  02 00 00 00
T3314 002:680.420 - 0.439ms returns 1 (0x1)
T3314 002:680.430 JLINK_ReadMemU32(0xE0001028, 0x1 Items)
T3314 002:680.442   CPU_ReadMem(4 bytes @ 0xE0001028)
T3314 002:680.763   Data:  00 00 00 00
T3314 002:680.790   Debug reg: DWT_FUNC[0]
T3314 002:680.797 - 0.369ms returns 1 (0x1)
T3314 002:680.805 JLINK_ReadMemU32(0xE0001038, 0x1 Items)
T3314 002:680.816   CPU_ReadMem(4 bytes @ 0xE0001038)
T3314 002:681.110   Data:  00 02 00 00
T3314 002:681.124   Debug reg: DWT_FUNC[1]
T3314 002:681.130 - 0.326ms returns 1 (0x1)
T3314 002:681.137 JLINK_ReadMemU32(0xE0001048, 0x1 Items)
T3314 002:681.144   CPU_ReadMem(4 bytes @ 0xE0001048)
T3314 002:681.438   Data:  00 00 00 00
T3314 002:681.451   Debug reg: DWT_FUNC[2]
T3314 002:681.456 - 0.321ms returns 1 (0x1)
T3314 002:681.462 JLINK_ReadMemU32(0xE0001058, 0x1 Items)
T3314 002:681.470   CPU_ReadMem(4 bytes @ 0xE0001058)
T3314 002:681.815   Data:  00 00 00 00
T3314 002:681.822   Debug reg: DWT_FUNC[3]
T3314 002:681.827 - 0.367ms returns 1 (0x1)
T3314 002:681.871 JLINK_HasError()
T3314 002:681.877 JLINK_ReadReg(R0)
T3314 002:681.883 - 0.007ms returns 0x08003BF1
T3314 002:681.888 JLINK_ReadReg(R1)
T3314 002:681.891 - 0.005ms returns 0x20000B58
T3314 002:681.910 JLINK_ReadReg(R2)
T3314 002:681.917 - 0.009ms returns 0x00000000
T3314 002:681.924 JLINK_ReadReg(R3)
T3314 002:681.930 - 0.008ms returns 0x08003BC5
T3314 002:681.935 JLINK_ReadReg(R4)
T3314 002:681.940 - 0.006ms returns 0x080041B0
T3314 002:681.945 JLINK_ReadReg(R5)
T3314 002:681.949 - 0.005ms returns 0x080041B0
T3314 002:681.953 JLINK_ReadReg(R6)
T3314 002:681.957 - 0.005ms returns 0x00000000
T3314 002:681.961 JLINK_ReadReg(R7)
T3314 002:681.964 - 0.005ms returns 0x00000000
T3314 002:681.969 JLINK_ReadReg(R8)
T3314 002:681.972 - 0.005ms returns 0x00000000
T3314 002:681.976 JLINK_ReadReg(R9)
T3314 002:681.980 - 0.005ms returns 0x00000000
T3314 002:681.984 JLINK_ReadReg(R10)
T3314 002:681.988 - 0.006ms returns 0x00000000
T3314 002:681.999 JLINK_ReadReg(R11)
T3314 002:682.007 - 0.009ms returns 0x00000000
T3314 002:682.012 JLINK_ReadReg(R12)
T3314 002:682.015 - 0.005ms returns 0x00000000
T3314 002:682.020 JLINK_ReadReg(R13 (SP))
T3314 002:682.024 - 0.006ms returns 0x20000B58
T3314 002:682.028 JLINK_ReadReg(R14)
T3314 002:682.032 - 0.005ms returns 0x080002C9
T3314 002:682.036 JLINK_ReadReg(R15 (PC))
T3314 002:682.040 - 0.005ms returns 0x08003BF0
T3314 002:682.044 JLINK_ReadReg(XPSR)
T3314 002:682.053 - 0.011ms returns 0x61000000
T3314 002:682.058 JLINK_ReadReg(MSP)
T3314 002:682.062 - 0.005ms returns 0x20000B58
T3314 002:682.066 JLINK_ReadReg(PSP)
T3314 002:682.070 - 0.005ms returns 0x00000000
T3314 002:682.074 JLINK_ReadReg(CFBP)
T3314 002:682.077 - 0.005ms returns 0x00000000
T3314 002:682.081 JLINK_ReadReg(FPSCR)
T3314 002:686.414 - 4.415ms returns 0x00000000
T3314 002:686.522 JLINK_ReadReg(FPS0)
T3314 002:686.546 - 0.026ms returns 0x00000000
T3314 002:686.556 JLINK_ReadReg(FPS1)
T3314 002:686.563 - 0.009ms returns 0x00000000
T3314 002:686.570 JLINK_ReadReg(FPS2)
T3314 002:686.576 - 0.010ms returns 0x00000000
T3314 002:686.585 JLINK_ReadReg(FPS3)
T3314 002:686.590 - 0.007ms returns 0x00000000
T3314 002:686.690 JLINK_ReadReg(FPS4)
T3314 002:686.705 - 0.017ms returns 0x00000000
T3314 002:686.712 JLINK_ReadReg(FPS5)
T3314 002:686.717 - 0.008ms returns 0x00000000
T3314 002:686.723 JLINK_ReadReg(FPS6)
T3314 002:686.730 - 0.008ms returns 0x00000000
T3314 002:686.736 JLINK_ReadReg(FPS7)
T3314 002:686.742 - 0.007ms returns 0x00000000
T3314 002:686.748 JLINK_ReadReg(FPS8)
T3314 002:686.753 - 0.006ms returns 0x00000000
T3314 002:686.757 JLINK_ReadReg(FPS9)
T3314 002:686.763 - 0.008ms returns 0x00000000
T3314 002:686.770 JLINK_ReadReg(FPS10)
T3314 002:686.775 - 0.007ms returns 0x00000000
T3314 002:686.781 JLINK_ReadReg(FPS11)
T3314 002:686.787 - 0.008ms returns 0x00000000
T3314 002:686.792 JLINK_ReadReg(FPS12)
T3314 002:686.796 - 0.007ms returns 0x00000000
T3314 002:686.802 JLINK_ReadReg(FPS13)
T3314 002:686.807 - 0.007ms returns 0x00000000
T3314 002:686.813 JLINK_ReadReg(FPS14)
T3314 002:686.818 - 0.007ms returns 0x00000000
T3314 002:686.824 JLINK_ReadReg(FPS15)
T3314 002:686.828 - 0.007ms returns 0x00000000
T3314 002:686.833 JLINK_ReadReg(FPS16)
T3314 002:686.838 - 0.007ms returns 0x00000000
T3314 002:686.844 JLINK_ReadReg(FPS17)
T3314 002:686.849 - 0.007ms returns 0x00000000
T3314 002:686.855 JLINK_ReadReg(FPS18)
T3314 002:686.859 - 0.006ms returns 0x00000000
T3314 002:686.863 JLINK_ReadReg(FPS19)
T3314 002:686.867 - 0.005ms returns 0x00000000
T3314 002:686.871 JLINK_ReadReg(FPS20)
T3314 002:686.875 - 0.005ms returns 0x00000000
T3314 002:686.879 JLINK_ReadReg(FPS21)
T3314 002:686.882 - 0.005ms returns 0x00000000
T3314 002:686.886 JLINK_ReadReg(FPS22)
T3314 002:686.889 - 0.005ms returns 0x00000000
T3314 002:686.893 JLINK_ReadReg(FPS23)
T3314 002:686.897 - 0.005ms returns 0x00000000
T3314 002:686.902 JLINK_ReadReg(FPS24)
T3314 002:686.908 - 0.007ms returns 0x00000000
T3314 002:686.914 JLINK_ReadReg(FPS25)
T3314 002:686.919 - 0.007ms returns 0x00000000
T3314 002:686.925 JLINK_ReadReg(FPS26)
T3314 002:686.929 - 0.006ms returns 0x00000000
T3314 002:686.935 JLINK_ReadReg(FPS27)
T3314 002:686.938 - 0.005ms returns 0x00000000
T3314 002:686.942 JLINK_ReadReg(FPS28)
T3314 002:686.946 - 0.005ms returns 0x00000000
T3314 002:686.950 JLINK_ReadReg(FPS29)
T3314 002:686.954 - 0.005ms returns 0x00000000
T3314 002:686.959 JLINK_ReadReg(FPS30)
T3314 002:686.963 - 0.006ms returns 0x00000000
T3314 002:686.968 JLINK_ReadReg(FPS31)
T3314 002:686.974 - 0.008ms returns 0x00000000
T4A10 002:689.435 JLINK_HasError()
T4A10 002:689.475 JLINK_ReadMemU32(0xE0001004, 0x1 Items)
T4A10 002:689.509   CPU_ReadMem(4 bytes @ 0xE0001004)
T4A10 002:689.927   Data:  A4 11 00 00
T4A10 002:689.944   Debug reg: DWT_CYCCNT
T4A10 002:689.950 - 0.476ms returns 1 (0x1)
T4A10 002:690.949 JLINK_ReadMemEx(0x2000000A, 0x2 Bytes, Flags = 0x02000000)
T4A10 002:690.973   CPU_ReadMem(64 bytes @ 0x20000000)
T4A10 002:691.731    -- Updating C cache (64 bytes @ 0x20000000)
T4A10 002:691.749    -- Read from C cache (2 bytes @ 0x2000000A)
T4A10 002:691.755   Data:  00 00
T4A10 002:691.761 - 0.814ms returns 2 (0x2)
T4A10 002:692.128 JLINK_ReadMemEx(0x2000000C, 0x4 Bytes, Flags = 0x02000000)
T4A10 002:692.150    -- Read from C cache (4 bytes @ 0x2000000C)
T4A10 002:692.159   Data:  00 00 00 00
T4A10 002:692.165 - 0.039ms returns 4 (0x4)
T4A10 002:692.405 JLINK_ReadMemEx(0x20000004, 0x2 Bytes, Flags = 0x02000000)
T4A10 002:692.420    -- Read from C cache (2 bytes @ 0x20000004)
T4A10 002:692.429   Data:  01 00
T4A10 002:692.435 - 0.032ms returns 2 (0x2)
T4A10 002:692.633 JLINK_ReadMemEx(0x20000006, 0x2 Bytes, Flags = 0x02000000)
T4A10 002:692.647    -- Read from C cache (2 bytes @ 0x20000006)
T4A10 002:692.654   Data:  0A 00
T4A10 002:692.661 - 0.029ms returns 2 (0x2)
T4A10 002:693.291 JLINK_ReadMemEx(0x200006C6, 0x2 Bytes, Flags = 0x02000000)
T4A10 002:693.316   CPU_ReadMem(64 bytes @ 0x200006C0)
T4A10 002:694.048    -- Updating C cache (64 bytes @ 0x200006C0)
T4A10 002:694.067    -- Read from C cache (2 bytes @ 0x200006C6)
T4A10 002:694.073   Data:  00 00
T4A10 002:694.078 - 0.789ms returns 2 (0x2)
T4A10 002:694.150 JLINK_ReadMemEx(0x40012000, 0x4C Bytes, Flags = 0x02000004)
T4A10 002:694.161   CPU_ReadMem(76 bytes @ 0x40012000)
T4A10 002:694.862   Data:  00 00 00 00 00 00 00 00 00 00 00 00 00 00 00 00 ...
T4A10 002:694.873 - 0.724ms returns 76 (0x4C)
T4A10 002:694.884 JLINK_ReadMemEx(0x4001204C, 0x4 Bytes, Flags = 0x02000004)
T4A10 002:694.892   CPU_ReadMem(4 bytes @ 0x4001204C)
T4A10 002:695.235   Data:  00 00 00 00
T4A10 002:695.247 - 0.365ms returns 4 (0x4)
T4A10 002:695.698 JLINK_ReadMemEx(0x40010000, 0x10 Bytes, Flags = 0x02000004)
T4A10 002:695.713   CPU_ReadMem(16 bytes @ 0x40010000)
T4A10 002:696.098   Data:  00 00 00 00 00 00 00 00 00 00 00 00 00 00 00 00
T4A10 002:696.118 - 0.421ms returns 16 (0x10)
T4A10 002:696.127 JLINK_ReadMemEx(0x40010010, 0x4 Bytes, Flags = 0x02000004)
T4A10 002:696.137   CPU_ReadMem(4 bytes @ 0x40010010)
T4A10 002:696.462   Data:  00 00 00 00
T4A10 002:696.474 - 0.348ms returns 4 (0x4)
T4A10 002:696.482 JLINK_ReadMemEx(0x40010018, 0x14 Bytes, Flags = 0x02000004)
T4A10 002:696.490   CPU_ReadMem(20 bytes @ 0x40010018)
T4A10 002:696.899   Data:  00 00 00 00 00 00 00 00 00 00 00 00 00 00 00 00 ...
T4A10 002:696.927 - 0.447ms returns 20 (0x14)
T4A10 002:696.941 JLINK_ReadMemEx(0x4001002C, 0x4 Bytes, Flags = 0x02000004)
T4A10 002:696.959   CPU_ReadMem(4 bytes @ 0x4001002C)
T4A10 002:697.276   Data:  00 00 00 00
T4A10 002:697.288 - 0.348ms returns 4 (0x4)
T4A10 002:697.295 JLINK_ReadMemEx(0x40010030, 0x4 Bytes, Flags = 0x02000004)
T4A10 002:697.302   CPU_ReadMem(4 bytes @ 0x40010030)
T4A10 002:697.627   Data:  00 00 00 00
T4A10 002:697.650 - 0.358ms returns 4 (0x4)
T4A10 002:697.662 JLINK_ReadMemEx(0x40010034, 0xC Bytes, Flags = 0x02000004)
T4A10 002:697.675   CPU_ReadMem(12 bytes @ 0x40010034)
T4A10 002:698.050   Data:  00 00 00 00 00 00 00 00 00 00 00 00
T4A10 002:698.078 - 0.417ms returns 12 (0xC)
T4A10 002:698.090 JLINK_ReadMemEx(0x40010040, 0x4 Bytes, Flags = 0x02000004)
T4A10 002:698.105   CPU_ReadMem(4 bytes @ 0x40010040)
T4A10 002:698.423   Data:  00 00 00 00
T4A10 002:698.440 - 0.351ms returns 4 (0x4)
T4A10 002:698.451 JLINK_ReadMemEx(0x40010044, 0x4 Bytes, Flags = 0x02000004)
T4A10 002:698.463   CPU_ReadMem(4 bytes @ 0x40010044)
T4A10 002:698.805   Data:  00 00 00 00
T4A10 002:698.825 - 0.377ms returns 4 (0x4)
T4A10 002:698.837 JLINK_ReadMemEx(0x40010048, 0x4 Bytes, Flags = 0x02000004)
T4A10 002:698.847   CPU_ReadMem(4 bytes @ 0x40010048)
T4A10 002:699.171   Data:  00 00 00 00
T4A10 002:699.186 - 0.352ms returns 4 (0x4)
T4A10 002:699.195 JLINK_ReadMemEx(0x4001004C, 0x4 Bytes, Flags = 0x02000004)
T4A10 002:699.206   CPU_ReadMem(4 bytes @ 0x4001004C)
T4A10 002:699.512   Data:  00 00 00 00
T4A10 002:699.525 - 0.333ms returns 4 (0x4)
T4A10 002:705.796 JLINK_ReadMemEx(0x08003AF0, 0x3C Bytes, Flags = 0x02000000)
T4A10 002:705.907   CPU_ReadMem(128 bytes @ 0x08003AC0)
T4A10 002:707.033    -- Updating C cache (128 bytes @ 0x08003AC0)
T4A10 002:707.058    -- Read from C cache (60 bytes @ 0x08003AF0)
T4A10 002:707.065   Data:  F3 D0 00 20 F7 E7 00 00 40 0D 03 00 10 B5 02 46 ...
T4A10 002:707.070 - 1.277ms returns 60 (0x3C)
T4A10 002:707.080 JLINK_ReadMemEx(0x08003AF0, 0x2 Bytes, Flags = 0x02000000)
T4A10 002:707.086    -- Read from C cache (2 bytes @ 0x08003AF0)
T4A10 002:707.091   Data:  F3 D0
T4A10 002:707.098 - 0.019ms returns 2 (0x2)
T4A10 002:707.104 JLINK_ReadMemEx(0x08003AF2, 0x2 Bytes, Flags = 0x02000000)
T4A10 002:707.108    -- Read from C cache (2 bytes @ 0x08003AF2)
T4A10 002:707.113   Data:  00 20
T4A10 002:707.118 - 0.015ms returns 2 (0x2)
T4A10 002:707.125 JLINK_ReadMemEx(0x08003AF2, 0x2 Bytes, Flags = 0x02000000)
T4A10 002:707.129    -- Read from C cache (2 bytes @ 0x08003AF2)
T4A10 002:707.134   Data:  00 20
T4A10 002:707.139 - 0.015ms returns 2 (0x2)
T4A10 002:707.143 JLINK_ReadMemEx(0x08003AF4, 0x3C Bytes, Flags = 0x02000000)
T4A10 002:707.147    -- Read from C cache (60 bytes @ 0x08003AF4)
T4A10 002:707.152   Data:  F7 E7 00 00 40 0D 03 00 10 B5 02 46 00 23 20 20 ...
T4A10 002:707.157 - 0.015ms returns 60 (0x3C)
T4A10 002:707.161 JLINK_ReadMemEx(0x08003AF4, 0x2 Bytes, Flags = 0x02000000)
T4A10 002:707.164    -- Read from C cache (2 bytes @ 0x08003AF4)
T4A10 002:707.169   Data:  F7 E7
T4A10 002:707.174 - 0.014ms returns 2 (0x2)
T4A10 002:707.179 JLINK_ReadMemEx(0x08003AF4, 0x3C Bytes, Flags = 0x02000000)
T4A10 002:707.182    -- Read from C cache (60 bytes @ 0x08003AF4)
T4A10 002:707.188   Data:  F7 E7 00 00 40 0D 03 00 10 B5 02 46 00 23 20 20 ...
T4A10 002:707.192 - 0.015ms returns 60 (0x3C)
T4A10 002:707.196 JLINK_ReadMemEx(0x08003AF4, 0x2 Bytes, Flags = 0x02000000)
T4A10 002:707.200    -- Read from C cache (2 bytes @ 0x08003AF4)
T4A10 002:707.205   Data:  F7 E7
T4A10 002:707.210 - 0.014ms returns 2 (0x2)
T4A10 002:707.214 JLINK_ReadMemEx(0x08003AF6, 0x2 Bytes, Flags = 0x02000000)
T4A10 002:707.218    -- Read from C cache (2 bytes @ 0x08003AF6)
T4A10 002:707.222   Data:  00 00
T4A10 002:707.227 - 0.015ms returns 2 (0x2)
T4A10 002:707.232 JLINK_ReadMemEx(0x08003AFC, 0x3C Bytes, Flags = 0x02000000)
T4A10 002:707.236    -- Read from C cache (60 bytes @ 0x08003AFC)
T4A10 002:707.241   Data:  10 B5 02 46 00 23 20 20 40 EA 81 10 10 61 00 BF ...
T4A10 002:707.248 - 0.018ms returns 60 (0x3C)
T4A10 002:707.253 JLINK_ReadMemEx(0x08003AFC, 0x2 Bytes, Flags = 0x02000000)
T4A10 002:707.257    -- Read from C cache (2 bytes @ 0x08003AFC)
T4A10 002:707.264   Data:  10 B5
T4A10 002:707.269 - 0.017ms returns 2 (0x2)
T4A10 002:707.273 JLINK_ReadMemEx(0x08003AFE, 0x2 Bytes, Flags = 0x02000000)
T4A10 002:707.277    -- Read from C cache (2 bytes @ 0x08003AFE)
T4A10 002:707.282   Data:  02 46
T4A10 002:707.286 - 0.015ms returns 2 (0x2)
T4A10 002:707.291 JLINK_ReadMemEx(0x08003AFE, 0x2 Bytes, Flags = 0x02000000)
T4A10 002:707.295    -- Read from C cache (2 bytes @ 0x08003AFE)
T4A10 002:707.299   Data:  02 46
T4A10 002:707.304 - 0.014ms returns 2 (0x2)
T4A10 002:707.308 JLINK_ReadMemEx(0x08003B00, 0x3C Bytes, Flags = 0x02000000)
T4A10 002:707.312    -- Read from C cache (60 bytes @ 0x08003B00)
T4A10 002:707.317   Data:  00 23 20 20 40 EA 81 10 10 61 00 BF 58 1C 03 46 ...
T4A10 002:707.322 - 0.015ms returns 60 (0x3C)
T4A10 002:707.326 JLINK_ReadMemEx(0x08003B00, 0x2 Bytes, Flags = 0x02000000)
T4A10 002:707.329    -- Read from C cache (2 bytes @ 0x08003B00)
T4A10 002:707.334   Data:  00 23
T4A10 002:707.339 - 0.014ms returns 2 (0x2)
T4A10 002:707.343 JLINK_ReadMemEx(0x08003B00, 0x3C Bytes, Flags = 0x02000000)
T4A10 002:707.347    -- Read from C cache (60 bytes @ 0x08003B00)
T4A10 002:707.352   Data:  00 23 20 20 40 EA 81 10 10 61 00 BF 58 1C 03 46 ...
T4A10 002:707.357 - 0.015ms returns 60 (0x3C)
T4A10 002:707.361 JLINK_ReadMemEx(0x08003B00, 0x2 Bytes, Flags = 0x02000000)
T4A10 002:707.365    -- Read from C cache (2 bytes @ 0x08003B00)
T4A10 002:707.370   Data:  00 23
T4A10 002:707.374 - 0.020ms returns 2 (0x2)
T4A10 002:707.388 JLINK_ReadMemEx(0x08003B02, 0x2 Bytes, Flags = 0x02000000)
T4A10 002:707.392    -- Read from C cache (2 bytes @ 0x08003B02)
T4A10 002:707.396   Data:  20 20
T4A10 002:707.401 - 0.015ms returns 2 (0x2)
T4A10 002:707.405 JLINK_ReadMemEx(0x08003B02, 0x2 Bytes, Flags = 0x02000000)
T4A10 002:707.409    -- Read from C cache (2 bytes @ 0x08003B02)
T4A10 002:707.414   Data:  20 20
T4A10 002:707.419 - 0.014ms returns 2 (0x2)
T4A10 002:707.423 JLINK_ReadMemEx(0x08003B04, 0x3C Bytes, Flags = 0x02000000)
T4A10 002:707.427    -- Read from C cache (60 bytes @ 0x08003B04)
T4A10 002:707.432   Data:  40 EA 81 10 10 61 00 BF 58 1C 03 46 05 4C A0 42 ...
T4A10 002:707.436 - 0.015ms returns 60 (0x3C)
T4A10 002:707.440 JLINK_ReadMemEx(0x08003B04, 0x2 Bytes, Flags = 0x02000000)
T4A10 002:707.444    -- Read from C cache (2 bytes @ 0x08003B04)
T4A10 002:707.449   Data:  40 EA
T4A10 002:707.454 - 0.015ms returns 2 (0x2)
T4A10 002:707.458 JLINK_ReadMemEx(0x08003B04, 0x3C Bytes, Flags = 0x02000000)
T4A10 002:707.462    -- Read from C cache (60 bytes @ 0x08003B04)
T4A10 002:707.467   Data:  40 EA 81 10 10 61 00 BF 58 1C 03 46 05 4C A0 42 ...
T4A10 002:707.472 - 0.015ms returns 60 (0x3C)
T4A10 002:707.476 JLINK_ReadMemEx(0x08003B04, 0x2 Bytes, Flags = 0x02000000)
T4A10 002:707.480    -- Read from C cache (2 bytes @ 0x08003B04)
T4A10 002:707.484   Data:  40 EA
T4A10 002:707.489 - 0.015ms returns 2 (0x2)
T4A10 002:707.493 JLINK_ReadMemEx(0x08003B06, 0x2 Bytes, Flags = 0x02000000)
T4A10 002:707.497    -- Read from C cache (2 bytes @ 0x08003B06)
T4A10 002:707.502   Data:  81 10
T4A10 002:707.507 - 0.015ms returns 2 (0x2)
T4A10 002:707.512 JLINK_ReadMemEx(0x08003B08, 0x3C Bytes, Flags = 0x02000000)
T4A10 002:707.520   CPU_ReadMem(64 bytes @ 0x08003B40)
